T6510 000:015.051   SEGGER J-Link V7.94i Log File
T6510 000:015.257   DLL Compiled: Feb  7 2024 17:04:01
T6510 000:015.299   Logging started @ 2025-01-03 15:41
T6510 000:015.325   Process: E:\Program Files\Keil_v5\UV4\UV4.exe
T6510 000:015.356 - 15.351ms
T6510 000:015.405 JLINK_SetWarnOutHandler(...)
T6510 000:015.433 - 0.048ms
T6510 000:015.476 JLINK_OpenEx(...)
T6510 000:018.729   Firmware: J-Link V11 compiled Dec  4 2023 10:22:45
T6510 000:021.276   Firmware: J-Link V11 compiled Dec  4 2023 10:22:45
T6510 000:043.721   Hardware: V11.00
T6510 000:043.816   S/N: 261003714
T6510 000:043.855   OEM: SEGGER-EDU
T6510 000:043.893   Feature(s): FlashBP, GDB
T6510 000:047.633   Bootloader: 2019 Jul 04
T6510 000:049.889   USB speed mode: High speed (480 MBit/s)
T6510 000:050.765   TELNET listener socket opened on port 19021
T6510 000:050.955   WEBSRV WEBSRV_Init(): Starting webserver thread(s)
T6510 000:051.139   WEBSRV Webserver running on local port 19080
T6510 000:051.658   Looking for J-Link GUI Server exe at: E:\Program Files\Keil_v5\ARM\Segger\JLinkGUIServer.exe
T6510 000:052.090   Looking for J-Link GUI Server exe at: C:\Program Files\SEGGER\JLink_V794i\JLinkGUIServer.exe
T6510 000:052.264   Forking J-Link GUI Server: C:\Program Files\SEGGER\JLink_V794i\JLinkGUIServer.exe
T6510 000:066.732   J-Link GUI Server info: "J-Link GUI server V7.94i "
T6510 000:067.545 - 52.055ms returns "O.K."
T6510 000:067.595 JLINK_GetEmuCaps()
T6510 000:067.641 - 0.041ms returns 0xB9FF7BBF
T6510 000:067.673 JLINK_TIF_GetAvailable(...)
T6510 000:068.283 - 0.609ms
T6510 000:068.336 JLINK_SetErrorOutHandler(...)
T6510 000:068.369 - 0.032ms
T6510 000:068.477 JLINK_ExecCommand("ProjectFile = "E:\WORK\JeremyWang_Gitee\wexcube\SDK\examples\Test_STM32F407VET6\MDK-ARM\JLinkSettings.ini"", ...). 
T6510 000:096.841   Ref file found at: E:\Program Files\Keil_v5\ARM\Segger\JLinkDevices.ref
T6510 000:097.388   REF file references invalid XML file: C:\Program Files\SEGGER\JLink_V794i\JLinkDevices.xml
T6510 000:099.118 - 30.643ms returns 0x00
T6510 000:099.228 JLINK_ExecCommand("Device = STM32F407VETx", ...). 
T6510 000:101.246   Device "STM32F407VE" selected.
T6510 000:101.900 - 2.630ms returns 0x00
T6510 000:101.955 JLINK_ExecCommand("DisableConnectionTimeout", ...). 
T6510 000:101.994 - 0.002ms returns 0x01
T6510 000:102.042 JLINK_GetHardwareVersion()
T6510 000:102.077 - 0.031ms returns 110000
T6510 000:102.110 JLINK_GetDLLVersion()
T6510 000:102.140 - 0.030ms returns 79409
T6510 000:102.172 JLINK_GetOEMString(...)
T6510 000:102.225 JLINK_GetDLLVersion()
T6510 000:102.256 - 0.031ms returns 79409
T6510 000:102.295 JLINK_GetCompileDateTime()
T6510 000:102.325 - 0.030ms
T6510 000:102.364 JLINK_GetFirmwareString(...)
T6510 000:102.395 - 0.030ms
T6510 000:102.432 JLINK_GetHardwareVersion()
T6510 000:102.464 - 0.032ms returns 110000
T6510 000:102.501 JLINK_GetSN()
T6510 000:102.532 - 0.030ms returns 261003714
T6510 000:102.568 JLINK_GetOEMString(...)
T6510 000:102.614 JLINK_TIF_Select(JLINKARM_TIF_SWD)
T6510 000:105.229 - 2.613ms returns 0x00
T6510 000:105.273 JLINK_HasError()
T6510 000:105.326 JLINK_SetSpeed(5000)
T6510 000:105.748 - 0.424ms
T6510 000:105.789 JLINK_GetId()
T6510 000:106.780   InitTarget() start
T6510 000:106.827    J-Link Script File: Executing InitTarget()
T6510 000:107.915   SWD selected. Executing JTAG -> SWD switching sequence.
T6510 000:113.075   DAP initialized successfully.
T6510 000:121.617   InitTarget() end - Took 14.7ms
T6510 000:122.730   Found SW-DP with ID 0x2BA01477
T6510 000:125.290   DPIDR: 0x2BA01477
T6510 000:125.349   CoreSight SoC-400 or earlier
T6510 000:125.403   Scanning AP map to find all available APs
T6510 000:126.163   AP[1]: Stopped AP scan as end of AP map has been reached
T6510 000:126.223   AP[0]: AHB-AP (IDR: 0x24770011)
T6510 000:126.275   Iterating through AP map to find AHB-AP to use
T6510 000:127.108   AP[0]: Core found
T6510 000:127.160   AP[0]: AHB-AP ROM base: 0xE00FF000
T6510 000:127.587   CPUID register: 0x410FC241. Implementer code: 0x41 (ARM)
T6510 000:127.731   Found Cortex-M4 r0p1, Little endian.
T6510 000:128.494   -- Max. mem block: 0x00004E40
T6510 000:129.188   CPU_ReadMem(4 bytes @ 0xE000EDF0)
T6510 000:129.658   CPU_ReadMem(4 bytes @ 0xE0002000)
T6510 000:130.106   FPUnit: 6 code (BP) slots and 2 literal slots
T6510 000:130.155   CPU_ReadMem(4 bytes @ 0xE000EDFC)
T6510 000:130.656   CPU_WriteMem(4 bytes @ 0xE000EDFC)
T6510 000:131.095   CPU_ReadMem(4 bytes @ 0xE0001000)
T6510 000:131.536   CPU_WriteMem(4 bytes @ 0xE0001000)
T6510 000:131.948   CPU_ReadMem(4 bytes @ 0xE000ED88)
T6510 000:132.345   CPU_WriteMem(4 bytes @ 0xE000ED88)
T6510 000:132.807   CPU_ReadMem(4 bytes @ 0xE000ED88)
T6510 000:133.219   CPU_WriteMem(4 bytes @ 0xE000ED88)
T6510 000:133.668   CoreSight components:
T6510 000:133.728   ROMTbl[0] @ E00FF000
T6510 000:133.772   CPU_ReadMem(64 bytes @ 0xE00FF000)
T6510 000:134.388   CPU_ReadMem(32 bytes @ 0xE000EFE0)
T6510 000:134.917   [0][0]: E000E000 CID B105E00D PID 000BB00C SCS-M7
T6510 000:134.965   CPU_ReadMem(32 bytes @ 0xE0001FE0)
T6510 000:135.561   [0][1]: E0001000 CID B105E00D PID 003BB002 DWT
T6510 000:135.609   CPU_ReadMem(32 bytes @ 0xE0002FE0)
T6510 000:136.188   [0][2]: E0002000 CID B105E00D PID 002BB003 FPB
T6510 000:136.236   CPU_ReadMem(32 bytes @ 0xE0000FE0)
T6510 000:136.790   [0][3]: E0000000 CID B105E00D PID 003BB001 ITM
T6510 000:136.839   CPU_ReadMem(32 bytes @ 0xE0040FE0)
T6510 000:137.438   [0][4]: E0040000 CID B105900D PID 000BB9A1 TPIU
T6510 000:137.487   CPU_ReadMem(32 bytes @ 0xE0041FE0)
T6510 000:138.042   [0][5]: E0041000 CID B105900D PID 000BB925 ETM
T6510 000:138.470 - 32.680ms returns 0x2BA01477
T6510 000:138.511 JLINK_GetDLLVersion()
T6510 000:138.540 - 0.028ms returns 79409
T6510 000:138.577 JLINK_CORE_GetFound()
T6510 000:138.606 - 0.029ms returns 0xE0000FF
T6510 000:138.708 JLINK_GetDebugInfo(0x100 = JLINKARM_ROM_TABLE_ADDR_INDEX)
T6510 000:138.742   Value=0xE00FF000
T6510 000:138.784 - 0.076ms returns 0
T6510 000:138.823 JLINK_GetDebugInfo(0x100 = JLINKARM_ROM_TABLE_ADDR_INDEX)
T6510 000:138.853   Value=0xE00FF000
T6510 000:138.895 - 0.071ms returns 0
T6510 000:138.924 JLINK_GetDebugInfo(0x101 = JLINKARM_DEBUG_INFO_ETM_ADDR_INDEX)
T6510 000:138.953   Value=0xE0041000
T6510 000:138.994 - 0.070ms returns 0
T6510 000:139.025 JLINK_ReadMemEx(0xE0041FD0, 0x20 Bytes, Flags = 0x02000004)
T6510 000:139.078   CPU_ReadMem(32 bytes @ 0xE0041FD0)
T6510 000:139.605   Data:  04 00 00 00 00 00 00 00 00 00 00 00 00 00 00 00 ...
T6510 000:139.652 - 0.626ms returns 32 (0x20)
T6510 000:139.683 JLINK_GetDebugInfo(0x102 = JLINKARM_DEBUG_INFO_MTB_ADDR_INDEX)
T6510 000:139.711   Value=0x00000000
T6510 000:139.754 - 0.070ms returns 0
T6510 000:139.784 JLINK_GetDebugInfo(0x103 = JLINKARM_DEBUG_INFO_TPIU_ADDR_INDEX)
T6510 000:139.811   Value=0xE0040000
T6510 000:139.852 - 0.068ms returns 0
T6510 000:139.882 JLINK_GetDebugInfo(0x104 = JLINKARM_DEBUG_INFO_ITM_ADDR_INDEX)
T6510 000:139.909   Value=0xE0000000
T6510 000:139.950 - 0.068ms returns 0
T6510 000:139.979 JLINK_GetDebugInfo(0x105 = JLINKARM_DEBUG_INFO_DWT_ADDR_INDEX)
T6510 000:140.007   Value=0xE0001000
T6510 000:140.048 - 0.068ms returns 0
T6510 000:140.082 JLINK_GetDebugInfo(0x106 = JLINKARM_DEBUG_INFO_FPB_ADDR_INDEX)
T6510 000:140.110   Value=0xE0002000
T6510 000:140.151 - 0.069ms returns 0
T6510 000:140.180 JLINK_GetDebugInfo(0x107 = JLINKARM_DEBUG_INFO_NVIC_ADDR_INDEX)
T6510 000:140.208   Value=0xE000E000
T6510 000:140.249 - 0.068ms returns 0
T6510 000:140.279 JLINK_GetDebugInfo(0x10C = JLINKARM_DEBUG_INFO_DBG_ADDR_INDEX)
T6510 000:140.306   Value=0xE000EDF0
T6510 000:140.347 - 0.068ms returns 0
T6510 000:140.380 JLINK_GetDebugInfo(0x01 = Unknown)
T6510 000:140.408   Value=0x00000001
T6510 000:140.449 - 0.073ms returns 0
T6510 000:140.479 JLINK_ReadMemU32(0xE000ED00, 0x1 Items)
T6510 000:140.511   CPU_ReadMem(4 bytes @ 0xE000ED00)
T6510 000:141.019   Data:  41 C2 0F 41
T6510 000:141.066   Debug reg: CPUID
T6510 000:141.108 - 0.628ms returns 1 (0x1)
T6510 000:141.139 JLINK_GetDebugInfo(0x10F = JLINKARM_DEBUG_INFO_HAS_CORTEX_M_SECURITY_EXT_INDEX)
T6510 000:141.170   Value=0x00000000
T6510 000:141.213 - 0.073ms returns 0
T6510 000:141.243 JLINK_HasError()
T6510 000:141.274 JLINK_SetResetType(JLINKARM_CM3_RESET_TYPE_NORMAL)
T6510 000:141.302 - 0.028ms returns JLINKARM_CM3_RESET_TYPE_NORMAL
T6510 000:141.332 JLINK_Reset()
T6510 000:141.380   CPU is running
T6510 000:141.424   CPU_WriteMem(4 bytes @ 0xE000EDF0)
T6510 000:141.843   CPU is running
T6510 000:141.895   CPU_WriteMem(4 bytes @ 0xE000EDFC)
T6510 000:142.372   Reset: Halt core after reset via DEMCR.VC_CORERESET.
T6510 000:143.159   Reset: Reset device via AIRCR.SYSRESETREQ.
T6510 000:143.220   CPU is running
T6510 000:143.274   CPU_WriteMem(4 bytes @ 0xE000ED0C)
T6510 000:197.367   CPU_ReadMem(4 bytes @ 0xE000EDF0)
T6510 000:198.361   CPU_ReadMem(4 bytes @ 0xE000EDF0)
T6510 000:202.287   CPU_WriteMem(4 bytes @ 0xE000EDFC)
T6510 000:209.092   CPU_ReadMem(4 bytes @ 0xE000EDF0)
T6510 000:212.304   CPU_WriteMem(4 bytes @ 0xE0002000)
T6510 000:212.863   CPU_ReadMem(4 bytes @ 0xE000EDFC)
T6510 000:213.462   CPU_ReadMem(4 bytes @ 0xE0001000)
T6510 000:214.111 - 72.778ms
T6510 000:214.154 JLINK_HasError()
T6510 000:214.185 JLINK_ReadReg(R15 (PC))
T6510 000:214.214 - 0.029ms returns 0x08000228
T6510 000:214.243 JLINK_ReadReg(XPSR)
T6510 000:214.270 - 0.026ms returns 0x01000000
T6510 000:214.299 JLINK_Halt()
T6510 000:214.325 - 0.025ms returns 0x00
T6510 000:214.356 JLINK_ReadMemU32(0xE000EDF0, 0x1 Items)
T6510 000:214.386   CPU_ReadMem(4 bytes @ 0xE000EDF0)
T6510 000:214.958   Data:  03 00 03 00
T6510 000:215.007   Debug reg: DHCSR
T6510 000:215.051 - 0.695ms returns 1 (0x1)
T6510 000:215.084 JLINK_WriteU32_64(0xE000EDF0, 0xA05F0003)
T6510 000:215.111   Debug reg: DHCSR
T6510 000:215.417   CPU_WriteMem(4 bytes @ 0xE000EDF0)
T6510 000:215.991 - 0.906ms returns 0 (0x00000000)
T6510 000:216.031 JLINK_WriteU32_64(0xE000EDFC, 0x01000000)
T6510 000:216.058   Debug reg: DEMCR
T6510 000:216.101   CPU_WriteMem(4 bytes @ 0xE000EDFC)
T6510 000:216.680 - 0.648ms returns 0 (0x00000000)
T6510 000:216.752 JLINK_GetHWStatus(...)
T6510 000:217.219 - 0.466ms returns 0
T6510 000:217.289 JLINK_GetNumBPUnits(Type = 0xFFFFFF00)
T6510 000:217.317 - 0.028ms returns 0x06
T6510 000:217.345 JLINK_GetNumBPUnits(Type = 0xF0)
T6510 000:217.371 - 0.025ms returns 0x2000
T6510 000:217.398 JLINK_GetNumWPUnits()
T6510 000:217.423 - 0.025ms returns 4
T6510 000:217.461 JLINK_GetSpeed()
T6510 000:217.487 - 0.026ms returns 5000
T6510 000:217.521 JLINK_ReadMemU32(0xE000E004, 0x1 Items)
T6510 000:217.552   CPU_ReadMem(4 bytes @ 0xE000E004)
T6510 000:218.065   Data:  02 00 00 00
T6510 000:218.125 - 0.604ms returns 1 (0x1)
T6510 000:218.155 JLINK_ReadMemU32(0xE000E004, 0x1 Items)
T6510 000:218.185   CPU_ReadMem(4 bytes @ 0xE000E004)
T6510 000:218.668   Data:  02 00 00 00
T6510 000:218.729 - 0.573ms returns 1 (0x1)
T6510 000:218.763 JLINK_WriteMemEx(0xE0001000, 0x0000001C Bytes, Flags = 0x02000004)
T6510 000:218.789   Data:  01 00 00 00 00 00 00 00 00 00 00 00 00 00 00 00 ...
T6510 000:218.833   CPU_WriteMem(28 bytes @ 0xE0001000)
T6510 000:219.431 - 0.668ms returns 0x1C
T6510 000:219.483 JLINK_HasError()
T6510 000:219.512 JLINK_ReadReg(R15 (PC))
T6510 000:219.540 - 0.028ms returns 0x08000228
T6510 000:219.568 JLINK_ReadReg(XPSR)
T6510 000:219.595 - 0.026ms returns 0x01000000
T6510 000:224.392 JLINK_ReadMemEx(0xE0001004, 0x4 Bytes, Flags = 0x02000000)
T6510 000:224.447   Data:  00 00 00 00
T6510 000:224.490   Debug reg: DWT_CYCCNT
T6510 000:224.532 - 0.141ms returns 4 (0x4)
T6510 000:330.893 JLINK_HasError()
T6510 000:330.950 JLINK_SetResetType(JLINKARM_CM3_RESET_TYPE_NORMAL)
T6510 000:330.980 - 0.029ms returns JLINKARM_CM3_RESET_TYPE_NORMAL
T6510 000:331.010 JLINK_Reset()
T6510 000:331.049   CPU_WriteMem(4 bytes @ 0xE000EDF0)
T6510 000:331.610   CPU_WriteMem(4 bytes @ 0xE000EDFC)
T6510 000:332.164   Reset: Halt core after reset via DEMCR.VC_CORERESET.
T6510 000:332.980   Reset: Reset device via AIRCR.SYSRESETREQ.
T6510 000:333.031   CPU_WriteMem(4 bytes @ 0xE000ED0C)
T6510 000:388.488   CPU_ReadMem(4 bytes @ 0xE000EDF0)
T6510 000:389.616   CPU_ReadMem(4 bytes @ 0xE000EDF0)
T6510 000:390.687   CPU_WriteMem(4 bytes @ 0xE000EDFC)
T6510 000:398.183   CPU_ReadMem(4 bytes @ 0xE000EDF0)
T6510 000:402.205   CPU_WriteMem(4 bytes @ 0xE0002000)
T6510 000:403.213   CPU_ReadMem(4 bytes @ 0xE000EDFC)
T6510 000:404.323   CPU_ReadMem(4 bytes @ 0xE0001000)
T6510 000:405.315 - 74.302ms
T6510 000:405.761 JLINK_HasError()
T6510 000:405.941 JLINK_ReadReg(R15 (PC))
T6510 000:406.089 - 0.147ms returns 0x08000228
T6510 000:406.230 JLINK_ReadReg(XPSR)
T6510 000:406.366 - 0.134ms returns 0x01000000
T6510 000:410.503 JLINK_ReadMemEx(0x08000228, 0x3C Bytes, Flags = 0x02000000)
T6510 000:410.727   CPU_ReadMem(128 bytes @ 0x08000200)
T6510 000:412.884    -- Updating C cache (128 bytes @ 0x08000200)
T6510 000:413.196    -- Read from C cache (60 bytes @ 0x08000228)
T6510 000:413.419   Data:  09 48 80 47 09 48 00 47 FE E7 FE E7 FE E7 FE E7 ...
T6510 000:413.696 - 3.192ms returns 60 (0x3C)
T6510 000:413.857 JLINK_ReadMemEx(0x08000228, 0x2 Bytes, Flags = 0x02000000)
T6510 000:413.996    -- Read from C cache (2 bytes @ 0x08000228)
T6510 000:414.187   Data:  09 48
T6510 000:414.378 - 0.522ms returns 2 (0x2)
T6510 000:414.828 JLINK_ReadMemEx(0x0800022A, 0x2 Bytes, Flags = 0x02000000)
T6510 000:414.968    -- Read from C cache (2 bytes @ 0x0800022A)
T6510 000:415.160   Data:  80 47
T6510 000:415.350 - 0.522ms returns 2 (0x2)
T6510 000:415.527 JLINK_ReadMemEx(0x0800022A, 0x2 Bytes, Flags = 0x02000000)
T6510 000:415.663    -- Read from C cache (2 bytes @ 0x0800022A)
T6510 000:415.853   Data:  80 47
T6510 000:416.043 - 0.517ms returns 2 (0x2)
T6510 000:416.250 JLINK_ReadMemEx(0x0800022C, 0x3C Bytes, Flags = 0x02000000)
T6510 000:416.391    -- Read from C cache (60 bytes @ 0x0800022C)
T6510 000:416.586   Data:  09 48 00 47 FE E7 FE E7 FE E7 FE E7 FE E7 FE E7 ...
T6510 000:416.776 - 0.527ms returns 60 (0x3C)
T6510 000:416.913 JLINK_ReadMemEx(0x0800022C, 0x2 Bytes, Flags = 0x02000000)
T6510 000:417.043    -- Read from C cache (2 bytes @ 0x0800022C)
T6510 000:417.232   Data:  09 48
T6510 000:417.421 - 0.509ms returns 2 (0x2)
T6510 000:738.275 JLINK_ReadMemEx(0x40011400, 0x18 Bytes, Flags = 0x02000004)
T6510 000:738.341   CPU_ReadMem(24 bytes @ 0x40011400)
T6510 000:738.942   Data:  00 00 00 00 00 00 00 00 00 00 00 00 00 00 00 00 ...
T6510 000:738.991 - 0.717ms returns 24 (0x18)
T6510 000:739.025 JLINK_ReadMemEx(0x40011418, 0x4 Bytes, Flags = 0x02000004)
T6510 000:739.058   CPU_ReadMem(4 bytes @ 0x40011418)
T6510 000:739.546   Data:  00 00 00 00
T6510 000:739.594 - 0.568ms returns 4 (0x4)
T6510 004:386.182 JLINK_ReadMemEx(0x08000228, 0x3C Bytes, Flags = 0x02000000)
T6510 004:386.239    -- Read from C cache (60 bytes @ 0x08000228)
T6510 004:386.283   Data:  09 48 80 47 09 48 00 47 FE E7 FE E7 FE E7 FE E7 ...
T6510 004:386.325 - 0.144ms returns 60 (0x3C)
T6510 004:386.356 JLINK_ReadMemEx(0x08000228, 0x2 Bytes, Flags = 0x02000000)
T6510 004:386.384    -- Read from C cache (2 bytes @ 0x08000228)
T6510 004:386.425   Data:  09 48
T6510 004:386.467 - 0.111ms returns 2 (0x2)
T6510 004:386.497 JLINK_ReadMemEx(0x0800022A, 0x2 Bytes, Flags = 0x02000000)
T6510 004:386.525    -- Read from C cache (2 bytes @ 0x0800022A)
T6510 004:386.566   Data:  80 47
T6510 004:386.607 - 0.110ms returns 2 (0x2)
T6510 004:386.643 JLINK_ReadMemEx(0x0800022A, 0x2 Bytes, Flags = 0x02000000)
T6510 004:386.672    -- Read from C cache (2 bytes @ 0x0800022A)
T6510 004:386.713   Data:  80 47
T6510 004:386.754 - 0.110ms returns 2 (0x2)
T6510 004:386.783 JLINK_ReadMemEx(0x0800022C, 0x3C Bytes, Flags = 0x02000000)
T6510 004:386.811    -- Read from C cache (60 bytes @ 0x0800022C)
T6510 004:386.853   Data:  09 48 00 47 FE E7 FE E7 FE E7 FE E7 FE E7 FE E7 ...
T6510 004:386.900 - 0.117ms returns 60 (0x3C)
T6510 004:386.930 JLINK_ReadMemEx(0x0800022C, 0x2 Bytes, Flags = 0x02000000)
T6510 004:386.958    -- Read from C cache (2 bytes @ 0x0800022C)
T6510 004:386.999   Data:  09 48
T6510 004:387.097 - 0.167ms returns 2 (0x2)
T6510 004:387.131 JLINK_ReadMemEx(0x0800022C, 0x3C Bytes, Flags = 0x02000000)
T6510 004:387.161    -- Read from C cache (60 bytes @ 0x0800022C)
T6510 004:387.202   Data:  09 48 00 47 FE E7 FE E7 FE E7 FE E7 FE E7 FE E7 ...
T6510 004:387.243 - 0.112ms returns 60 (0x3C)
T6510 004:387.273 JLINK_ReadMemEx(0x0800022C, 0x2 Bytes, Flags = 0x02000000)
T6510 004:387.301    -- Read from C cache (2 bytes @ 0x0800022C)
T6510 004:387.342   Data:  09 48
T6510 004:387.383 - 0.110ms returns 2 (0x2)
T6510 004:387.412 JLINK_ReadMemEx(0x0800022E, 0x2 Bytes, Flags = 0x02000000)
T6510 004:387.440    -- Read from C cache (2 bytes @ 0x0800022E)
T6510 004:387.481   Data:  00 47
T6510 004:387.522 - 0.110ms returns 2 (0x2)
T6510 005:091.082 JLINK_HasError()
T6510 005:091.152 JLINK_ReadReg(R0)
T6510 005:091.660 - 0.507ms returns 0x00000000
T6510 005:091.698 JLINK_ReadReg(R1)
T6510 005:091.728 - 0.029ms returns 0x00000000
T6510 005:091.758 JLINK_ReadReg(R2)
T6510 005:091.787 - 0.028ms returns 0x00000000
T6510 005:091.817 JLINK_ReadReg(R3)
T6510 005:091.853 - 0.035ms returns 0x00000000
T6510 005:091.883 JLINK_ReadReg(R4)
T6510 005:091.911 - 0.028ms returns 0x00000000
T6510 005:091.941 JLINK_ReadReg(R5)
T6510 005:091.971 - 0.029ms returns 0x00000000
T6510 005:092.001 JLINK_ReadReg(R6)
T6510 005:092.030 - 0.028ms returns 0x00000000
T6510 005:092.060 JLINK_ReadReg(R7)
T6510 005:092.088 - 0.028ms returns 0x00000000
T6510 005:092.118 JLINK_ReadReg(R8)
T6510 005:092.147 - 0.028ms returns 0x00000000
T6510 005:092.177 JLINK_ReadReg(R9)
T6510 005:092.205 - 0.028ms returns 0x00000000
T6510 005:092.235 JLINK_ReadReg(R10)
T6510 005:092.264 - 0.028ms returns 0x00000000
T6510 005:092.293 JLINK_ReadReg(R11)
T6510 005:092.322 - 0.028ms returns 0x00000000
T6510 005:092.352 JLINK_ReadReg(R12)
T6510 005:092.380 - 0.028ms returns 0x00000000
T6510 005:092.411 JLINK_ReadReg(R13 (SP))
T6510 005:092.440 - 0.028ms returns 0x20000A88
T6510 005:092.469 JLINK_ReadReg(R14)
T6510 005:092.498 - 0.028ms returns 0xFFFFFFFF
T6510 005:092.528 JLINK_ReadReg(R15 (PC))
T6510 005:092.557 - 0.028ms returns 0x08000228
T6510 005:092.586 JLINK_ReadReg(XPSR)
T6510 005:092.615 - 0.028ms returns 0x01000000
T6510 005:092.645 JLINK_ReadReg(MSP)
T6510 005:092.673 - 0.028ms returns 0x20000A88
T6510 005:092.703 JLINK_ReadReg(PSP)
T6510 005:092.732 - 0.028ms returns 0x00000000
T6510 005:092.762 JLINK_ReadReg(CFBP)
T6510 005:092.794 - 0.031ms returns 0x00000000
T6510 005:093.298 JLINK_ReadReg(FPSCR)
T6510 005:096.489 - 3.663ms returns 0x00000000
T6510 005:096.623 JLINK_ReadReg(FPS0)
T6510 005:096.677 - 0.038ms returns 0x00000000
T6510 005:096.755 JLINK_ReadReg(FPS1)
T6510 005:096.787 - 0.032ms returns 0x00000000
T6510 005:096.821 JLINK_ReadReg(FPS2)
T6510 005:096.903 - 0.081ms returns 0x00000000
T6510 005:096.975 JLINK_ReadReg(FPS3)
T6510 005:097.008 - 0.032ms returns 0x00000000
T6510 005:097.057 JLINK_ReadReg(FPS4)
T6510 005:097.144 - 0.086ms returns 0x00000000
T6510 005:097.180 JLINK_ReadReg(FPS5)
T6510 005:097.242 - 0.061ms returns 0x00000000
T6510 005:097.390 JLINK_ReadReg(FPS6)
T6510 005:097.448 - 0.058ms returns 0x00000000
T6510 005:097.505 JLINK_ReadReg(FPS7)
T6510 005:097.599 - 0.092ms returns 0x00000000
T6510 005:097.663 JLINK_ReadReg(FPS8)
T6510 005:097.700 - 0.036ms returns 0x00000000
T6510 005:097.736 JLINK_ReadReg(FPS9)
T6510 005:097.793 - 0.056ms returns 0x00000000
T6510 005:097.831 JLINK_ReadReg(FPS10)
T6510 005:097.888 - 0.056ms returns 0x00000000
T6510 005:097.934 JLINK_ReadReg(FPS11)
T6510 005:097.964 - 0.029ms returns 0x00000000
T6510 005:098.010 JLINK_ReadReg(FPS12)
T6510 005:098.037 - 0.027ms returns 0x00000000
T6510 005:098.065 JLINK_ReadReg(FPS13)
T6510 005:098.092 - 0.026ms returns 0x00000000
T6510 005:098.128 JLINK_ReadReg(FPS14)
T6510 005:098.155 - 0.027ms returns 0x00000000
T6510 005:098.183 JLINK_ReadReg(FPS15)
T6510 005:098.209 - 0.026ms returns 0x00000000
T6510 005:098.237 JLINK_ReadReg(FPS16)
T6510 005:098.264 - 0.026ms returns 0x00000000
T6510 005:098.339 JLINK_ReadReg(FPS17)
T6510 005:098.394 - 0.055ms returns 0x00000000
T6510 005:098.441 JLINK_ReadReg(FPS18)
T6510 005:098.485 - 0.043ms returns 0x00000000
T6510 005:098.512 JLINK_ReadReg(FPS19)
T6510 005:098.539 - 0.026ms returns 0x00000000
T6510 005:098.567 JLINK_ReadReg(FPS20)
T6510 005:098.614 - 0.047ms returns 0x00000000
T6510 005:098.644 JLINK_ReadReg(FPS21)
T6510 005:098.673 - 0.028ms returns 0x00000000
T6510 005:098.717 JLINK_ReadReg(FPS22)
T6510 005:098.744 - 0.027ms returns 0x00000000
T6510 005:098.782 JLINK_ReadReg(FPS23)
T6510 005:098.811 - 0.028ms returns 0x00000000
T6510 005:098.844 JLINK_ReadReg(FPS24)
T6510 005:098.877 - 0.032ms returns 0x00000000
T6510 005:098.910 JLINK_ReadReg(FPS25)
T6510 005:098.942 - 0.031ms returns 0x00000000
T6510 005:098.976 JLINK_ReadReg(FPS26)
T6510 005:099.009 - 0.033ms returns 0x00000000
T6510 005:099.059 JLINK_ReadReg(FPS27)
T6510 005:099.096 - 0.037ms returns 0x00000000
T6510 005:099.131 JLINK_ReadReg(FPS28)
T6510 005:099.167 - 0.035ms returns 0x00000000
T6510 005:099.204 JLINK_ReadReg(FPS29)
T6510 005:099.255 - 0.049ms returns 0x00000000
T6510 005:099.341 JLINK_ReadReg(FPS30)
T6510 005:099.394 - 0.052ms returns 0x00000000
T6510 005:099.439 JLINK_ReadReg(FPS31)
T6510 005:099.500 - 0.060ms returns 0x00000000
T4E18 005:188.983 JLINK_ReadMemEx(0x08000228, 0x2 Bytes, Flags = 0x02000000)
T4E18 005:189.053    -- Read from C cache (2 bytes @ 0x08000228)
T4E18 005:189.108   Data:  09 48
T4E18 005:189.155 - 0.172ms returns 2 (0x2)
T4E18 005:189.186 JLINK_HasError()
T4E18 005:189.219 JLINK_SetBPEx(Addr = 0x08001C0C, Type = 0xFFFFFFF2)
T4E18 005:189.252 - 0.033ms returns 0x00000001
T4E18 005:189.281 JLINK_HasError()
T4E18 005:189.314 JLINK_HasError()
T4E18 005:189.350 JLINK_Go()
T4E18 005:189.414   CPU_WriteMem(4 bytes @ 0xE0002000)
T4E18 005:189.951   CPU_ReadMem(4 bytes @ 0xE0001000)
T4E18 005:190.405   CPU_WriteMem(4 bytes @ 0xE0002008)
T4E18 005:190.467   CPU_WriteMem(4 bytes @ 0xE000200C)
T4E18 005:190.520   CPU_WriteMem(4 bytes @ 0xE0002010)
T4E18 005:190.576   CPU_WriteMem(4 bytes @ 0xE0002014)
T4E18 005:190.628   CPU_WriteMem(4 bytes @ 0xE0002018)
T4E18 005:190.683   CPU_WriteMem(4 bytes @ 0xE000201C)
T4E18 005:191.599   CPU_WriteMem(4 bytes @ 0xE0001004)
T4E18 005:192.683   Memory map 'after startup completion point' is active
T4E18 005:192.739 - 3.388ms
T4E18 005:293.474 JLINK_HasError()
T4E18 005:293.591 JLINK_IsHalted()
T4E18 005:295.698 - 2.105ms returns TRUE
T4E18 005:295.766 JLINK_HasError()
T4E18 005:295.812 JLINK_Halt()
T4E18 005:295.852 - 0.039ms returns 0x00
T4E18 005:295.893 JLINK_IsHalted()
T4E18 005:295.932 - 0.039ms returns TRUE
T4E18 005:295.971 JLINK_IsHalted()
T4E18 005:296.004 - 0.033ms returns TRUE
T4E18 005:296.040 JLINK_IsHalted()
T4E18 005:296.093 - 0.053ms returns TRUE
T4E18 005:296.127 JLINK_HasError()
T4E18 005:296.161 JLINK_ReadReg(R15 (PC))
T4E18 005:296.195 - 0.034ms returns 0x08001C0C
T4E18 005:296.229 JLINK_ReadReg(XPSR)
T4E18 005:296.261 - 0.032ms returns 0x21000000
T4E18 005:296.299 JLINK_HasError()
T4E18 005:296.332 JLINK_ClrBPEx(BPHandle = 0x00000001)
T4E18 005:296.365 - 0.032ms returns 0x00
T4E18 005:296.398 JLINK_HasError()
T4E18 005:296.435 JLINK_HasError()
T4E18 005:296.470 JLINK_ReadMemU32(0xE000ED30, 0x1 Items)
T4E18 005:296.508   CPU_ReadMem(4 bytes @ 0xE000ED30)
T4E18 005:296.949   Data:  02 00 00 00
T4E18 005:297.039 - 0.568ms returns 1 (0x1)
T4E18 005:297.090 JLINK_ReadMemU32(0xE0001028, 0x1 Items)
T4E18 005:297.142   CPU_ReadMem(4 bytes @ 0xE0001028)
T4E18 005:297.593   Data:  00 00 00 00
T4E18 005:297.678   Debug reg: DWT_FUNC[0]
T4E18 005:297.745 - 0.655ms returns 1 (0x1)
T4E18 005:297.800 JLINK_ReadMemU32(0xE0001038, 0x1 Items)
T4E18 005:297.854   CPU_ReadMem(4 bytes @ 0xE0001038)
T4E18 005:298.287   Data:  00 02 00 00
T4E18 005:298.365   Debug reg: DWT_FUNC[1]
T4E18 005:298.435 - 0.634ms returns 1 (0x1)
T4E18 005:298.491 JLINK_ReadMemU32(0xE0001048, 0x1 Items)
T4E18 005:298.545   CPU_ReadMem(4 bytes @ 0xE0001048)
T4E18 005:299.013   Data:  00 00 00 00
T4E18 005:299.100   Debug reg: DWT_FUNC[2]
T4E18 005:299.166 - 0.674ms returns 1 (0x1)
T4E18 005:299.220 JLINK_ReadMemU32(0xE0001058, 0x1 Items)
T4E18 005:299.271   CPU_ReadMem(4 bytes @ 0xE0001058)
T4E18 005:299.698   Data:  00 00 00 00
T4E18 005:299.771   Debug reg: DWT_FUNC[3]
T4E18 005:299.841 - 0.620ms returns 1 (0x1)
T4E18 005:299.943 JLINK_HasError()
T4E18 005:299.996 JLINK_ReadReg(R0)
T4E18 005:300.051 - 0.054ms returns 0x20000488
T4E18 005:300.088 JLINK_ReadReg(R1)
T4E18 005:300.128 - 0.039ms returns 0x20000688
T4E18 005:300.165 JLINK_ReadReg(R2)
T4E18 005:300.200 - 0.035ms returns 0x20000688
T4E18 005:300.244 JLINK_ReadReg(R3)
T4E18 005:300.292 - 0.047ms returns 0x20000688
T4E18 005:300.338 JLINK_ReadReg(R4)
T4E18 005:300.381 - 0.042ms returns 0x00000000
T4E18 005:300.423 JLINK_ReadReg(R5)
T4E18 005:300.464 - 0.040ms returns 0x20000424
T4E18 005:300.508 JLINK_ReadReg(R6)
T4E18 005:300.546 - 0.037ms returns 0x00000000
T4E18 005:300.594 JLINK_ReadReg(R7)
T4E18 005:300.692 - 0.097ms returns 0x00000000
T4E18 005:300.734 JLINK_ReadReg(R8)
T4E18 005:300.778 - 0.044ms returns 0x00000000
T4E18 005:300.822 JLINK_ReadReg(R9)
T4E18 005:300.869 - 0.046ms returns 0x00000000
T4E18 005:300.912 JLINK_ReadReg(R10)
T4E18 005:300.951 - 0.038ms returns 0x08002150
T4E18 005:300.987 JLINK_ReadReg(R11)
T4E18 005:301.022 - 0.034ms returns 0x00000000
T4E18 005:301.058 JLINK_ReadReg(R12)
T4E18 005:301.107 - 0.048ms returns 0x20000464
T4E18 005:301.142 JLINK_ReadReg(R13 (SP))
T4E18 005:301.176 - 0.033ms returns 0x20000A88
T4E18 005:301.212 JLINK_ReadReg(R14)
T4E18 005:301.250 - 0.037ms returns 0x08000217
T4E18 005:301.288 JLINK_ReadReg(R15 (PC))
T4E18 005:301.327 - 0.039ms returns 0x08001C0C
T4E18 005:301.363 JLINK_ReadReg(XPSR)
T4E18 005:301.404 - 0.041ms returns 0x21000000
T4E18 005:301.452 JLINK_ReadReg(MSP)
T4E18 005:301.493 - 0.040ms returns 0x20000A88
T4E18 005:301.534 JLINK_ReadReg(PSP)
T4E18 005:301.574 - 0.039ms returns 0x00000000
T4E18 005:301.615 JLINK_ReadReg(CFBP)
T4E18 005:301.653 - 0.038ms returns 0x04000000
T4E18 005:301.689 JLINK_ReadReg(FPSCR)
T4E18 005:304.589 - 2.899ms returns 0x03000000
T4E18 005:304.635 JLINK_ReadReg(FPS0)
T4E18 005:304.670 - 0.035ms returns 0x00000000
T4E18 005:304.705 JLINK_ReadReg(FPS1)
T4E18 005:304.739 - 0.033ms returns 0x00000000
T4E18 005:304.773 JLINK_ReadReg(FPS2)
T4E18 005:304.806 - 0.032ms returns 0x00000000
T4E18 005:304.840 JLINK_ReadReg(FPS3)
T4E18 005:304.872 - 0.032ms returns 0x00000000
T4E18 005:304.907 JLINK_ReadReg(FPS4)
T4E18 005:304.939 - 0.032ms returns 0x00000000
T4E18 005:304.973 JLINK_ReadReg(FPS5)
T4E18 005:305.006 - 0.032ms returns 0x00000000
T4E18 005:305.057 JLINK_ReadReg(FPS6)
T4E18 005:305.104 - 0.045ms returns 0x00000000
T4E18 005:305.155 JLINK_ReadReg(FPS7)
T4E18 005:305.205 - 0.049ms returns 0x00000000
T4E18 005:305.256 JLINK_ReadReg(FPS8)
T4E18 005:305.306 - 0.049ms returns 0x00000000
T4E18 005:305.357 JLINK_ReadReg(FPS9)
T4E18 005:305.411 - 0.053ms returns 0x00000000
T4E18 005:305.499 JLINK_ReadReg(FPS10)
T4E18 005:305.558 - 0.058ms returns 0x00000000
T4E18 005:305.626 JLINK_ReadReg(FPS11)
T4E18 005:305.680 - 0.053ms returns 0x00000000
T4E18 005:305.729 JLINK_ReadReg(FPS12)
T4E18 005:305.766 - 0.037ms returns 0x00000000
T4E18 005:305.807 JLINK_ReadReg(FPS13)
T4E18 005:305.863 - 0.056ms returns 0x00000000
T4E18 005:305.919 JLINK_ReadReg(FPS14)
T4E18 005:305.969 - 0.049ms returns 0x00000000
T4E18 005:306.023 JLINK_ReadReg(FPS15)
T4E18 005:306.088 - 0.064ms returns 0x00000000
T4E18 005:306.136 JLINK_ReadReg(FPS16)
T4E18 005:306.187 - 0.050ms returns 0x00000000
T4E18 005:306.234 JLINK_ReadReg(FPS17)
T4E18 005:306.281 - 0.046ms returns 0x00000000
T4E18 005:306.329 JLINK_ReadReg(FPS18)
T4E18 005:306.375 - 0.046ms returns 0x00000000
T4E18 005:306.423 JLINK_ReadReg(FPS19)
T4E18 005:306.469 - 0.045ms returns 0x00000000
T4E18 005:306.517 JLINK_ReadReg(FPS20)
T4E18 005:306.563 - 0.046ms returns 0x00000000
T4E18 005:306.612 JLINK_ReadReg(FPS21)
T4E18 005:306.662 - 0.049ms returns 0x00000000
T4E18 005:306.716 JLINK_ReadReg(FPS22)
T4E18 005:306.763 - 0.046ms returns 0x00000000
T4E18 005:306.810 JLINK_ReadReg(FPS23)
T4E18 005:306.857 - 0.046ms returns 0x00000000
T4E18 005:306.905 JLINK_ReadReg(FPS24)
T4E18 005:306.952 - 0.046ms returns 0x00000000
T4E18 005:306.999 JLINK_ReadReg(FPS25)
T4E18 005:307.045 - 0.045ms returns 0x00000000
T4E18 005:307.096 JLINK_ReadReg(FPS26)
T4E18 005:307.143 - 0.046ms returns 0x00000000
T4E18 005:307.190 JLINK_ReadReg(FPS27)
T4E18 005:307.240 - 0.049ms returns 0x00000000
T4E18 005:307.289 JLINK_ReadReg(FPS28)
T4E18 005:307.336 - 0.047ms returns 0x00000000
T4E18 005:307.383 JLINK_ReadReg(FPS29)
T4E18 005:307.429 - 0.045ms returns 0x00000000
T4E18 005:307.476 JLINK_ReadReg(FPS30)
T4E18 005:307.523 - 0.045ms returns 0x00000000
T4E18 005:307.571 JLINK_ReadReg(FPS31)
T4E18 005:307.617 - 0.045ms returns 0x00000000
T6510 005:312.854 JLINK_HasError()
T6510 005:312.939 JLINK_ReadMemU32(0xE0001004, 0x1 Items)
T6510 005:312.993   CPU_ReadMem(4 bytes @ 0xE0001004)
T6510 005:313.495   Data:  01 06 00 00
T6510 005:313.554   Debug reg: DWT_CYCCNT
T6510 005:313.618 - 0.679ms returns 1 (0x1)
T6510 005:314.263 JLINK_ReadMemEx(0x40011400, 0x18 Bytes, Flags = 0x02000004)
T6510 005:314.329   CPU_ReadMem(24 bytes @ 0x40011400)
T6510 005:314.876   Data:  00 00 00 00 00 00 00 00 00 00 00 00 00 00 00 00 ...
T6510 005:314.955 - 0.691ms returns 24 (0x18)
T6510 005:315.007 JLINK_ReadMemEx(0x40011418, 0x4 Bytes, Flags = 0x02000004)
T6510 005:315.060   CPU_ReadMem(4 bytes @ 0x40011418)
T6510 005:315.493   Data:  00 00 00 00
T6510 005:315.552 - 0.544ms returns 4 (0x4)
T4E18 022:027.376 JLINK_ReadMemEx(0x08001C0C, 0x2 Bytes, Flags = 0x02000000)
T4E18 022:027.451   CPU_ReadMem(64 bytes @ 0x08001C00)
T4E18 022:028.204    -- Updating C cache (64 bytes @ 0x08001C00)
T4E18 022:028.267    -- Read from C cache (2 bytes @ 0x08001C0C)
T4E18 022:028.311   Data:  FE F7
T4E18 022:028.354 - 0.978ms returns 2 (0x2)
T4E18 022:028.388 JLINK_HasError()
T4E18 022:028.419 JLINK_HasError()
T4E18 022:028.450 JLINK_Go()
T4E18 022:028.999   CPU_ReadMem(4 bytes @ 0xE0001000)
T4E18 022:029.573   CPU_WriteMem(4 bytes @ 0xE0002008)
T4E18 022:030.748 - 2.297ms
T4E18 022:131.254 JLINK_HasError()
T4E18 022:131.310 JLINK_IsHalted()
T4E18 022:131.771 - 0.460ms returns FALSE
T4E18 022:232.662 JLINK_HasError()
T4E18 022:232.738 JLINK_IsHalted()
T4E18 022:233.254 - 0.515ms returns FALSE
T4E18 022:333.851 JLINK_HasError()
T4E18 022:333.905 JLINK_IsHalted()
T4E18 022:334.427 - 0.520ms returns FALSE
T4E18 022:434.544 JLINK_HasError()
T4E18 022:434.599 JLINK_IsHalted()
T4E18 022:435.040 - 0.440ms returns FALSE
T4E18 022:535.383 JLINK_HasError()
T4E18 022:535.658 JLINK_IsHalted()
T4E18 022:536.325 - 0.666ms returns FALSE
T4E18 022:637.452 JLINK_HasError()
T4E18 022:637.510 JLINK_HasError()
T4E18 022:637.542 JLINK_ReadMemU32(0xE0001004, 0x1 Items)
T4E18 022:637.582   CPU_ReadMem(4 bytes @ 0xE0001004)
T4E18 022:638.754   Data:  B4 15 14 06
T4E18 022:638.840   Debug reg: DWT_CYCCNT
T4E18 022:638.884 - 1.342ms returns 1 (0x1)
T6510 022:639.166 JLINK_ReadMemEx(0x40011400, 0x18 Bytes, Flags = 0x02000004)
T6510 022:639.240   CPU_ReadMem(24 bytes @ 0x40011400)
T6510 022:639.972   Data:  D0 00 00 00 ED 00 00 00 D9 02 00 00 2C 20 00 00 ...
T6510 022:640.025 - 0.859ms returns 24 (0x18)
T6510 022:640.060 JLINK_ReadMemEx(0x40011418, 0x4 Bytes, Flags = 0x02000004)
T6510 022:640.094   CPU_ReadMem(4 bytes @ 0x40011418)
T6510 022:640.687   Data:  00 00 00 00
T6510 022:640.741 - 0.680ms returns 4 (0x4)
T4E18 022:654.362 JLINK_IsHalted()
T4E18 022:655.001 - 0.638ms returns FALSE
T4E18 022:755.906 JLINK_HasError()
T4E18 022:756.010 JLINK_IsHalted()
T4E18 022:756.883 - 0.871ms returns FALSE
T4E18 022:858.907 JLINK_HasError()
T4E18 022:858.962 JLINK_IsHalted()
T4E18 022:860.261 - 1.298ms returns FALSE
T4E18 022:960.893 JLINK_HasError()
T4E18 022:961.113 JLINK_IsHalted()
T4E18 022:962.065 - 0.948ms returns FALSE
T4E18 023:062.641 JLINK_HasError()
T4E18 023:063.127 JLINK_IsHalted()
T4E18 023:064.170 - 1.040ms returns FALSE
T4E18 023:165.410 JLINK_HasError()
T4E18 023:165.627 JLINK_HasError()
T4E18 023:165.769 JLINK_ReadMemU32(0xE0001004, 0x1 Items)
T4E18 023:165.938   Data:  B4 15 14 06
T4E18 023:166.136   Debug reg: DWT_CYCCNT
T4E18 023:166.330 - 0.561ms returns 1 (0x1)
T6510 023:167.459 JLINK_ReadMemEx(0x40011400, 0x18 Bytes, Flags = 0x02000004)
T6510 023:167.672   CPU_ReadMem(24 bytes @ 0x40011400)
T6510 023:168.776   Data:  C0 00 00 00 ED 00 00 00 D9 02 00 00 2C 20 00 00 ...
T6510 023:169.022 - 1.563ms returns 24 (0x18)
T6510 023:169.181 JLINK_ReadMemEx(0x40011418, 0x4 Bytes, Flags = 0x02000004)
T6510 023:169.339   CPU_ReadMem(4 bytes @ 0x40011418)
T6510 023:170.239   Data:  00 00 00 00
T6510 023:170.631 - 1.442ms returns 4 (0x4)
T4E18 023:192.160 JLINK_IsHalted()
T4E18 023:192.897 - 0.735ms returns FALSE
T4E18 023:294.025 JLINK_HasError()
T4E18 023:294.090 JLINK_IsHalted()
T4E18 023:294.709 - 0.618ms returns FALSE
T4E18 023:395.991 JLINK_HasError()
T4E18 023:396.189 JLINK_IsHalted()
T4E18 023:397.121 - 0.929ms returns FALSE
T4E18 023:497.515 JLINK_HasError()
T4E18 023:497.619 JLINK_IsHalted()
T4E18 023:498.447 - 0.826ms returns FALSE
T4E18 023:599.212 JLINK_HasError()
T4E18 023:599.325 JLINK_IsHalted()
T4E18 023:600.004 - 0.678ms returns FALSE
T4E18 023:700.238 JLINK_HasError()
T4E18 023:700.297 JLINK_HasError()
T4E18 023:700.328 JLINK_ReadMemU32(0xE0001004, 0x1 Items)
T4E18 023:700.366   Data:  B4 15 14 06
T4E18 023:700.408   Debug reg: DWT_CYCCNT
T4E18 023:700.449 - 0.121ms returns 1 (0x1)
T6510 023:700.598 JLINK_ReadMemEx(0x40011400, 0x18 Bytes, Flags = 0x02000004)
T6510 023:700.638   CPU_ReadMem(24 bytes @ 0x40011400)
T6510 023:701.424   Data:  D0 00 00 00 ED 00 00 00 D9 02 00 00 2C 20 00 00 ...
T6510 023:701.491 - 0.893ms returns 24 (0x18)
T6510 023:701.525 JLINK_ReadMemEx(0x40011418, 0x4 Bytes, Flags = 0x02000004)
T6510 023:701.570   CPU_ReadMem(4 bytes @ 0x40011418)
T6510 023:702.161   Data:  00 00 00 00
T6510 023:702.221 - 0.695ms returns 4 (0x4)
T4E18 023:706.301 JLINK_IsHalted()
T4E18 023:706.923 - 0.621ms returns FALSE
T4E18 023:807.638 JLINK_HasError()
T4E18 023:807.783 JLINK_IsHalted()
T4E18 023:808.550 - 0.766ms returns FALSE
T4E18 023:909.845 JLINK_HasError()
T4E18 023:909.898 JLINK_IsHalted()
T4E18 023:910.631 - 0.732ms returns FALSE
T4E18 024:011.940 JLINK_HasError()
T4E18 024:011.990 JLINK_IsHalted()
T4E18 024:012.670 - 0.678ms returns FALSE
T4E18 024:113.381 JLINK_HasError()
T4E18 024:113.439 JLINK_IsHalted()
T4E18 024:113.967 - 0.526ms returns FALSE
T4E18 024:215.019 JLINK_HasError()
T4E18 024:215.088 JLINK_HasError()
T4E18 024:215.126 JLINK_ReadMemU32(0xE0001004, 0x1 Items)
T4E18 024:215.173   Data:  B4 15 14 06
T4E18 024:215.226   Debug reg: DWT_CYCCNT
T4E18 024:215.278 - 0.151ms returns 1 (0x1)
T6510 024:215.468 JLINK_ReadMemEx(0x40011400, 0x18 Bytes, Flags = 0x02000004)
T6510 024:215.526   CPU_ReadMem(24 bytes @ 0x40011400)
T6510 024:216.696   Data:  C0 00 00 00 ED 00 00 00 D9 02 00 00 2C 20 00 00 ...
T6510 024:216.776 - 1.308ms returns 24 (0x18)
T6510 024:216.824 JLINK_ReadMemEx(0x40011418, 0x4 Bytes, Flags = 0x02000004)
T6510 024:216.870   CPU_ReadMem(4 bytes @ 0x40011418)
T6510 024:217.912   Data:  00 00 00 00
T6510 024:218.002 - 1.178ms returns 4 (0x4)
T4E18 024:223.681 JLINK_IsHalted()
T4E18 024:224.357 - 0.676ms returns FALSE
T4E18 024:324.673 JLINK_HasError()
T4E18 024:324.725 JLINK_IsHalted()
T4E18 024:325.857 - 1.131ms returns FALSE
T4E18 024:426.903 JLINK_HasError()
T4E18 024:427.214 JLINK_IsHalted()
T4E18 024:428.218 - 1.002ms returns FALSE
T4E18 024:528.776 JLINK_HasError()
T4E18 024:529.006 JLINK_IsHalted()
T4E18 024:529.974 - 0.965ms returns FALSE
T6510 024:542.742 JLINK_HasError()
T6510 024:542.993 JLINK_SetBPEx(Addr = 0x08001AC2, Type = 0xFFFFFFF2)
T6510 024:543.140   CPU is running
T6510 024:543.396   CPU is running
T6510 024:543.633   CPU_WriteMem(4 bytes @ 0xE0002000)
T6510 024:544.712   CPU is running
T6510 024:544.961   CPU_WriteMem(4 bytes @ 0xE0002008)
T6510 024:546.046 - 3.051ms returns 0x00000002
T4E18 024:630.343 JLINK_HasError()
T4E18 024:630.564 JLINK_IsHalted()
T4E18 024:631.538 - 0.971ms returns FALSE
T4E18 024:731.998 JLINK_HasError()
T4E18 024:732.158 JLINK_HasError()
T4E18 024:732.236 JLINK_ReadMemU32(0xE0001004, 0x1 Items)
T4E18 024:732.312   Data:  B4 15 14 06
T4E18 024:732.403   Debug reg: DWT_CYCCNT
T4E18 024:732.490 - 0.254ms returns 1 (0x1)
T6510 024:732.736 JLINK_ReadMemEx(0x40011400, 0x18 Bytes, Flags = 0x02000004)
T6510 024:732.826   CPU_ReadMem(24 bytes @ 0x40011400)
T6510 024:733.807   Data:  D0 00 00 00 ED 00 00 00 D9 02 00 00 2C 20 00 00 ...
T6510 024:733.915 - 1.179ms returns 24 (0x18)
T6510 024:733.987 JLINK_ReadMemEx(0x40011418, 0x4 Bytes, Flags = 0x02000004)
T6510 024:734.057   CPU_ReadMem(4 bytes @ 0x40011418)
T6510 024:734.806   Data:  00 00 00 00
T6510 024:734.912 - 0.924ms returns 4 (0x4)
T4E18 024:744.569 JLINK_IsHalted()
T4E18 024:745.268 - 0.698ms returns FALSE
T4E18 024:845.919 JLINK_HasError()
T4E18 024:846.023 JLINK_IsHalted()
T4E18 024:846.899 - 0.874ms returns FALSE
T4E18 024:947.700 JLINK_HasError()
T4E18 024:947.805 JLINK_IsHalted()
T4E18 024:948.676 - 0.869ms returns FALSE
T4E18 025:049.171 JLINK_HasError()
T4E18 025:049.309 JLINK_IsHalted()
T4E18 025:050.120 - 0.809ms returns FALSE
T4E18 025:150.946 JLINK_HasError()
T4E18 025:151.072 JLINK_IsHalted()
T4E18 025:151.687 - 0.613ms returns FALSE
T4E18 025:252.676 JLINK_HasError()
T4E18 025:252.729 JLINK_HasError()
T4E18 025:252.761 JLINK_ReadMemU32(0xE0001004, 0x1 Items)
T4E18 025:252.801   Data:  B4 15 14 06
T4E18 025:252.846   Debug reg: DWT_CYCCNT
T4E18 025:252.889 - 0.128ms returns 1 (0x1)
T6510 025:253.056 JLINK_ReadMemEx(0x40011400, 0x18 Bytes, Flags = 0x02000004)
T6510 025:253.099   CPU_ReadMem(24 bytes @ 0x40011400)
T6510 025:253.751   Data:  F8 00 00 00 BE 00 00 00 D9 02 00 00 2C 20 00 00 ...
T6510 025:253.802 - 0.746ms returns 24 (0x18)
T6510 025:253.836 JLINK_ReadMemEx(0x40011418, 0x4 Bytes, Flags = 0x02000004)
T6510 025:253.870   CPU_ReadMem(4 bytes @ 0x40011418)
T6510 025:254.449   Data:  00 00 00 00
T6510 025:254.500 - 0.663ms returns 4 (0x4)
T4E18 025:262.454 JLINK_IsHalted()
T4E18 025:264.811 - 2.356ms returns TRUE
T4E18 025:264.855 JLINK_HasError()
T4E18 025:264.899 JLINK_Halt()
T4E18 025:264.927 - 0.027ms returns 0x00
T4E18 025:264.956 JLINK_IsHalted()
T4E18 025:264.983 - 0.027ms returns TRUE
T4E18 025:265.011 JLINK_IsHalted()
T4E18 025:265.038 - 0.026ms returns TRUE
T4E18 025:265.066 JLINK_IsHalted()
T4E18 025:265.093 - 0.026ms returns TRUE
T4E18 025:265.122 JLINK_HasError()
T4E18 025:265.151 JLINK_ReadReg(R15 (PC))
T4E18 025:265.181 - 0.029ms returns 0x08001AC2
T4E18 025:265.209 JLINK_ReadReg(XPSR)
T4E18 025:265.237 - 0.027ms returns 0x61000057
T4E18 025:265.290 JLINK_HasError()
T4E18 025:265.320 JLINK_ClrBPEx(BPHandle = 0x00000002)
T4E18 025:265.349 - 0.028ms returns 0x00
T4E18 025:265.394 JLINK_HasError()
T4E18 025:265.422 JLINK_HasError()
T4E18 025:265.451 JLINK_ReadMemU32(0xE000ED30, 0x1 Items)
T4E18 025:265.483   CPU_ReadMem(4 bytes @ 0xE000ED30)
T4E18 025:266.036   Data:  02 00 00 00
T4E18 025:266.087 - 0.635ms returns 1 (0x1)
T4E18 025:266.119 JLINK_ReadMemU32(0xE0001028, 0x1 Items)
T4E18 025:266.151   CPU_ReadMem(4 bytes @ 0xE0001028)
T4E18 025:266.974   Data:  00 00 00 00
T4E18 025:267.030   Debug reg: DWT_FUNC[0]
T4E18 025:267.071 - 0.952ms returns 1 (0x1)
T4E18 025:267.103 JLINK_ReadMemU32(0xE0001038, 0x1 Items)
T4E18 025:267.137   CPU_ReadMem(4 bytes @ 0xE0001038)
T4E18 025:267.686   Data:  00 02 00 00
T4E18 025:267.737   Debug reg: DWT_FUNC[1]
T4E18 025:267.778 - 0.674ms returns 1 (0x1)
T4E18 025:267.810 JLINK_ReadMemU32(0xE0001048, 0x1 Items)
T4E18 025:267.842   CPU_ReadMem(4 bytes @ 0xE0001048)
T4E18 025:268.473   Data:  00 00 00 00
T4E18 025:268.525   Debug reg: DWT_FUNC[2]
T4E18 025:268.569 - 0.758ms returns 1 (0x1)
T4E18 025:268.619 JLINK_ReadMemU32(0xE0001058, 0x1 Items)
T4E18 025:268.654   CPU_ReadMem(4 bytes @ 0xE0001058)
T4E18 025:269.374   Data:  00 00 00 00
T4E18 025:269.423   Debug reg: DWT_FUNC[3]
T4E18 025:269.465 - 0.846ms returns 1 (0x1)
T4E18 025:269.526 JLINK_HasError()
T4E18 025:269.558 JLINK_ReadReg(R0)
T4E18 025:269.606 - 0.048ms returns 0x200003EC
T4E18 025:269.650 JLINK_ReadReg(R1)
T4E18 025:269.677 - 0.027ms returns 0x00000012
T4E18 025:269.706 JLINK_ReadReg(R2)
T4E18 025:269.733 - 0.027ms returns 0x000000FF
T4E18 025:269.762 JLINK_ReadReg(R3)
T4E18 025:269.789 - 0.027ms returns 0x00000000
T4E18 025:269.817 JLINK_ReadReg(R4)
T4E18 025:269.846 - 0.028ms returns 0x200003EC
T4E18 025:269.874 JLINK_ReadReg(R5)
T4E18 025:269.902 - 0.027ms returns 0x20000424
T4E18 025:269.930 JLINK_ReadReg(R6)
T4E18 025:269.957 - 0.027ms returns 0x00000000
T4E18 025:269.985 JLINK_ReadReg(R7)
T4E18 025:270.012 - 0.027ms returns 0x00000000
T4E18 025:270.041 JLINK_ReadReg(R8)
T4E18 025:270.068 - 0.027ms returns 0x00000000
T4E18 025:270.096 JLINK_ReadReg(R9)
T4E18 025:270.123 - 0.026ms returns 0x00000000
T4E18 025:270.152 JLINK_ReadReg(R10)
T4E18 025:270.179 - 0.027ms returns 0x08002150
T4E18 025:270.207 JLINK_ReadReg(R11)
T4E18 025:270.234 - 0.027ms returns 0x00000000
T4E18 025:270.263 JLINK_ReadReg(R12)
T4E18 025:270.290 - 0.027ms returns 0x80000000
T4E18 025:270.318 JLINK_ReadReg(R13 (SP))
T4E18 025:270.346 - 0.027ms returns 0x20000A00
T4E18 025:270.374 JLINK_ReadReg(R14)
T4E18 025:270.401 - 0.027ms returns 0xFFFFFFE9
T4E18 025:270.429 JLINK_ReadReg(R15 (PC))
T4E18 025:270.457 - 0.027ms returns 0x08001AC2
T4E18 025:270.485 JLINK_ReadReg(XPSR)
T4E18 025:270.512 - 0.027ms returns 0x61000057
T4E18 025:270.541 JLINK_ReadReg(MSP)
T4E18 025:270.568 - 0.027ms returns 0x20000A00
T4E18 025:270.596 JLINK_ReadReg(PSP)
T4E18 025:270.623 - 0.027ms returns 0x00000000
T4E18 025:270.652 JLINK_ReadReg(CFBP)
T4E18 025:270.679 - 0.026ms returns 0x00000000
T4E18 025:270.707 JLINK_ReadReg(FPSCR)
T4E18 025:274.009 - 3.301ms returns 0x03000000
T4E18 025:274.064 JLINK_ReadReg(FPS0)
T4E18 025:274.097 - 0.032ms returns 0x00000000
T4E18 025:274.126 JLINK_ReadReg(FPS1)
T4E18 025:274.155 - 0.028ms returns 0x00000000
T4E18 025:274.184 JLINK_ReadReg(FPS2)
T4E18 025:274.212 - 0.027ms returns 0x00000000
T4E18 025:274.241 JLINK_ReadReg(FPS3)
T4E18 025:274.269 - 0.027ms returns 0x00000000
T4E18 025:274.297 JLINK_ReadReg(FPS4)
T4E18 025:274.325 - 0.027ms returns 0x00000000
T4E18 025:274.354 JLINK_ReadReg(FPS5)
T4E18 025:274.382 - 0.027ms returns 0x00000000
T4E18 025:274.410 JLINK_ReadReg(FPS6)
T4E18 025:274.440 - 0.028ms returns 0x00000000
T4E18 025:274.468 JLINK_ReadReg(FPS7)
T4E18 025:274.496 - 0.027ms returns 0x00000000
T4E18 025:274.525 JLINK_ReadReg(FPS8)
T4E18 025:274.552 - 0.027ms returns 0x00000000
T4E18 025:274.581 JLINK_ReadReg(FPS9)
T4E18 025:274.609 - 0.027ms returns 0x00000000
T4E18 025:274.638 JLINK_ReadReg(FPS10)
T4E18 025:274.665 - 0.027ms returns 0x00000000
T4E18 025:274.694 JLINK_ReadReg(FPS11)
T4E18 025:274.722 - 0.027ms returns 0x00000000
T4E18 025:274.751 JLINK_ReadReg(FPS12)
T4E18 025:274.778 - 0.027ms returns 0x00000000
T4E18 025:274.807 JLINK_ReadReg(FPS13)
T4E18 025:274.835 - 0.027ms returns 0x00000000
T4E18 025:274.863 JLINK_ReadReg(FPS14)
T4E18 025:274.891 - 0.027ms returns 0x00000000
T4E18 025:274.922 JLINK_ReadReg(FPS15)
T4E18 025:274.959 - 0.037ms returns 0x00000000
T4E18 025:274.988 JLINK_ReadReg(FPS16)
T4E18 025:275.016 - 0.027ms returns 0x00000000
T4E18 025:275.044 JLINK_ReadReg(FPS17)
T4E18 025:275.072 - 0.027ms returns 0x00000000
T4E18 025:275.101 JLINK_ReadReg(FPS18)
T4E18 025:275.130 - 0.028ms returns 0x00000000
T4E18 025:275.158 JLINK_ReadReg(FPS19)
T4E18 025:275.186 - 0.027ms returns 0x00000000
T4E18 025:275.215 JLINK_ReadReg(FPS20)
T4E18 025:275.243 - 0.027ms returns 0x00000000
T4E18 025:275.272 JLINK_ReadReg(FPS21)
T4E18 025:275.299 - 0.027ms returns 0x00000000
T4E18 025:275.328 JLINK_ReadReg(FPS22)
T4E18 025:275.356 - 0.027ms returns 0x00000000
T4E18 025:275.384 JLINK_ReadReg(FPS23)
T4E18 025:275.412 - 0.027ms returns 0x00000000
T4E18 025:275.440 JLINK_ReadReg(FPS24)
T4E18 025:275.472 - 0.031ms returns 0x00000000
T4E18 025:275.500 JLINK_ReadReg(FPS25)
T4E18 025:275.528 - 0.027ms returns 0x00000000
T4E18 025:275.557 JLINK_ReadReg(FPS26)
T4E18 025:275.584 - 0.027ms returns 0x00000000
T4E18 025:275.613 JLINK_ReadReg(FPS27)
T4E18 025:275.641 - 0.027ms returns 0x00000000
T4E18 025:275.670 JLINK_ReadReg(FPS28)
T4E18 025:275.698 - 0.027ms returns 0x00000000
T4E18 025:275.726 JLINK_ReadReg(FPS29)
T4E18 025:275.753 - 0.027ms returns 0x00000000
T4E18 025:275.782 JLINK_ReadReg(FPS30)
T4E18 025:275.809 - 0.027ms returns 0x00000000
T4E18 025:275.842 JLINK_ReadReg(FPS31)
T4E18 025:275.870 - 0.028ms returns 0x00000000
T6510 025:276.059 JLINK_ReadMemEx(0x20000A04, 0x4 Bytes, Flags = 0x02000000)
T6510 025:276.105   CPU_ReadMem(64 bytes @ 0x20000A00)
T6510 025:278.075    -- Updating C cache (64 bytes @ 0x20000A00)
T6510 025:278.141    -- Read from C cache (4 bytes @ 0x20000A04)
T6510 025:278.182   Data:  E9 FF FF FF
T6510 025:278.223 - 2.164ms returns 4 (0x4)
T6510 025:278.323 JLINK_ReadMemEx(0x20000A20, 0x4 Bytes, Flags = 0x02000000)
T6510 025:278.356    -- Read from C cache (4 bytes @ 0x20000A20)
T6510 025:278.397   Data:  26 20 00 08
T6510 025:278.437 - 0.114ms returns 4 (0x4)
T6510 025:278.466 JLINK_ReadMemEx(0x20000A24, 0x4 Bytes, Flags = 0x02000000)
T6510 025:278.494    -- Read from C cache (4 bytes @ 0x20000A24)
T6510 025:278.534   Data:  00 70 00 61
T6510 025:278.574 - 0.108ms returns 4 (0x4)
T6510 025:278.603 JLINK_ReadMemEx(0x20000A1C, 0x4 Bytes, Flags = 0x02000000)
T6510 025:278.630    -- Read from C cache (4 bytes @ 0x20000A1C)
T6510 025:278.670   Data:  3F 1C 00 08
T6510 025:278.710 - 0.107ms returns 4 (0x4)
T6510 025:278.738 JLINK_ReadMemEx(0xE000ED28, 0x4 Bytes, Flags = 0x02000000)
T6510 025:278.770   CPU_ReadMem(4 bytes @ 0xE000ED28)
T6510 025:279.548   Data:  00 00 00 00
T6510 025:279.612 - 0.873ms returns 4 (0x4)
T6510 025:279.995 JLINK_ReadMemEx(0x20000A70, 0x4 Bytes, Flags = 0x02000000)
T6510 025:280.039   CPU_ReadMem(64 bytes @ 0x20000A40)
T6510 025:282.038    -- Updating C cache (64 bytes @ 0x20000A40)
T6510 025:282.105    -- Read from C cache (4 bytes @ 0x20000A70)
T6510 025:282.148   Data:  EC 03 00 20
T6510 025:282.191 - 2.196ms returns 4 (0x4)
T6510 025:282.231 JLINK_ReadMemEx(0x20000A88, 0x4 Bytes, Flags = 0x02000000)
T6510 025:282.269   CPU_ReadMem(64 bytes @ 0x20000A80)
T6510 025:283.645    -- Updating C cache (64 bytes @ 0x20000A80)
T6510 025:283.714    -- Read from C cache (4 bytes @ 0x20000A88)
T6510 025:283.757   Data:  C1 1B 00 20
T6510 025:283.800 - 1.568ms returns 4 (0x4)
T6510 025:283.841 JLINK_ReadMemEx(0x20000A74, 0x4 Bytes, Flags = 0x02000000)
T6510 025:283.874    -- Read from C cache (4 bytes @ 0x20000A74)
T6510 025:283.915   Data:  24 04 00 20
T6510 025:283.957 - 0.115ms returns 4 (0x4)
T6510 025:283.986 JLINK_ReadMemEx(0x20000A78, 0x4 Bytes, Flags = 0x02000000)
T6510 025:284.017    -- Read from C cache (4 bytes @ 0x20000A78)
T6510 025:284.059   Data:  00 00 00 00
T6510 025:284.104 - 0.117ms returns 4 (0x4)
T6510 025:284.143 JLINK_ReadMemEx(0x20000A7C, 0x4 Bytes, Flags = 0x02000000)
T6510 025:284.175    -- Read from C cache (4 bytes @ 0x20000A7C)
T6510 025:284.220   Data:  00 00 00 00
T6510 025:284.266 - 0.122ms returns 4 (0x4)
T6510 025:284.298 JLINK_ReadMemEx(0x20000A80, 0x4 Bytes, Flags = 0x02000000)
T6510 025:284.331    -- Read from C cache (4 bytes @ 0x20000A80)
T6510 025:284.379   Data:  00 00 00 00
T6510 025:284.421 - 0.122ms returns 4 (0x4)
T6510 025:284.450 JLINK_ReadMemEx(0x20000A84, 0x4 Bytes, Flags = 0x02000000)
T6510 025:284.479    -- Read from C cache (4 bytes @ 0x20000A84)
T6510 025:284.520   Data:  3F 1C 00 08
T6510 025:284.561 - 0.110ms returns 4 (0x4)
T6510 025:284.590 JLINK_ReadMemEx(0x20000A88, 0x4 Bytes, Flags = 0x02000000)
T6510 025:284.618    -- Read from C cache (4 bytes @ 0x20000A88)
T6510 025:284.659   Data:  C1 1B 00 20
T6510 025:284.700 - 0.109ms returns 4 (0x4)
T6510 025:287.397 JLINK_HasError()
T6510 025:287.450 JLINK_ReadMemU32(0xE0001004, 0x1 Items)
T6510 025:287.490   Data:  B4 15 14 06
T6510 025:287.553   Debug reg: DWT_CYCCNT
T6510 025:287.596 - 0.145ms returns 1 (0x1)
T6510 025:287.831 JLINK_ReadMemEx(0x40011400, 0x18 Bytes, Flags = 0x02000004)
T6510 025:287.867   CPU_ReadMem(24 bytes @ 0x40011400)
T6510 025:288.476   Data:  C0 00 00 00 BE 00 00 00 D9 02 00 00 2C 20 00 00 ...
T6510 025:288.532 - 0.700ms returns 24 (0x18)
T6510 025:288.584 JLINK_ReadMemEx(0x40011418, 0x4 Bytes, Flags = 0x02000004)
T6510 025:288.637   CPU_ReadMem(4 bytes @ 0x40011418)
T6510 025:289.205   Data:  00 00 00 00
T6510 025:289.253 - 0.668ms returns 4 (0x4)
T6510 025:293.162 JLINK_ReadMemEx(0x08001AC2, 0x2 Bytes, Flags = 0x02000000)
T6510 025:293.206   CPU_ReadMem(64 bytes @ 0x08001AC0)
T6510 025:294.150    -- Updating C cache (64 bytes @ 0x08001AC0)
T6510 025:294.201    -- Read from C cache (2 bytes @ 0x08001AC2)
T6510 025:294.244   Data:  0E 48
T6510 025:294.286 - 1.124ms returns 2 (0x2)
T6510 025:294.319 JLINK_ReadMemEx(0x08001AC4, 0x3C Bytes, Flags = 0x02000000)
T6510 025:294.349    -- Read from C cache (60 bytes @ 0x08001AC4)
T6510 025:294.391   Data:  00 68 00 68 00 F0 20 00 20 28 09 D1 0A 48 00 68 ...
T6510 025:294.433 - 0.114ms returns 60 (0x3C)
T6510 025:294.463 JLINK_ReadMemEx(0x08001AC4, 0x2 Bytes, Flags = 0x02000000)
T6510 025:294.491    -- Read from C cache (2 bytes @ 0x08001AC4)
T6510 025:294.533   Data:  00 68
T6510 025:294.575 - 0.112ms returns 2 (0x2)
T6510 025:294.612 JLINK_ReadMemEx(0x08001AC4, 0x3C Bytes, Flags = 0x02000000)
T6510 025:294.641    -- Read from C cache (60 bytes @ 0x08001AC4)
T6510 025:294.683   Data:  00 68 00 68 00 F0 20 00 20 28 09 D1 0A 48 00 68 ...
T6510 025:294.724 - 0.112ms returns 60 (0x3C)
T6510 025:294.754 JLINK_ReadMemEx(0x08001AC4, 0x2 Bytes, Flags = 0x02000000)
